                            bridge-rectifier circuit
                            Transient Analysis  Thu Jan 20 11:21:24  2022
--------------------------------------------------------------------------------
Index   time            i(vd1)          i(vd3)          
--------------------------------------------------------------------------------
0	0.000000e+00	-4.83992e-27	-4.83992e-27	
1	5.000000e-06	8.862782e-08	-8.81119e-08	
2	1.000000e-05	8.921506e-08	-8.76430e-08	
3	2.000000e-05	9.114287e-08	-8.62516e-08	
4	4.000000e-05	9.571960e-08	-8.49921e-08	
5	8.000000e-05	2.103703e-07	-8.14447e-08	
6	1.242433e-04	5.379904e-06	-8.16133e-08	
7	1.656589e-04	7.844210e-05	-1.13394e-07	
8	2.099948e-04	2.738280e-04	-1.31809e-07	
9	2.755177e-04	6.413348e-04	-1.24765e-07	
10	3.585814e-04	1.146964e-03	-1.23951e-07	
11	5.087006e-04	2.092184e-03	-1.07444e-07	
12	8.089391e-04	4.000151e-03	-9.71449e-08	
13	1.308939e-03	7.102915e-03	-7.50271e-08	
14	1.808939e-03	1.001473e-02	-6.81713e-08	
15	2.308939e-03	1.265284e-02	-5.14569e-08	
16	2.808939e-03	1.495005e-02	-4.68412e-08	
17	3.308939e-03	1.684750e-02	-3.09640e-08	
18	3.808939e-03	1.829720e-02	-2.67078e-08	
19	4.308939e-03	1.926307e-02	-1.10071e-08	
20	4.808939e-03	1.972101e-02	-6.77411e-09	
21	5.308939e-03	1.965959e-02	8.930125e-09	
22	5.808939e-03	1.908034e-02	1.316335e-08	
23	6.308939e-03	1.799770e-02	2.886849e-08	
24	6.808939e-03	1.643873e-02	3.314177e-08	
25	7.308939e-03	1.444246e-02	4.901437e-08	
26	7.808939e-03	1.205919e-02	5.375973e-08	
27	8.308939e-03	9.349464e-03	7.070878e-08	
28	8.808939e-03	6.384377e-03	7.815801e-08	
29	9.308939e-03	3.251137e-03	1.020307e-07	
30	9.808939e-03	1.672361e-04	1.289913e-07	
31	1.013032e-02	1.948421e-05	6.034407e-06	
32	1.040312e-02	-1.97248e-05	1.444877e-03	
33	1.067266e-02	1.950678e-05	3.116039e-03	
34	1.103558e-02	-1.96938e-05	5.443952e-03	
35	1.153558e-02	1.953575e-05	8.432391e-03	
36	1.203558e-02	-1.96679e-05	1.126766e-02	
37	1.253558e-02	1.955804e-05	1.372047e-02	
38	1.303558e-02	-1.96470e-05	1.588241e-02	
39	1.353558e-02	1.957827e-05	1.754287e-02	
40	1.403558e-02	-1.96270e-05	1.881627e-02	
41	1.453558e-02	1.959820e-05	1.951493e-02	
42	1.503558e-02	-1.96071e-05	1.977731e-02	
43	1.553558e-02	1.961813e-05	1.944098e-02	
44	1.603558e-02	-1.95872e-05	1.867021e-02	
45	1.653558e-02	1.963807e-05	1.732835e-02	
46	1.703558e-02	-1.95671e-05	1.560482e-02	
47	1.753558e-02	1.965838e-05	1.338701e-02	
48	1.803558e-02	-1.95461e-05	1.088687e-02	
49	1.853558e-02	1.968110e-05	8.012804e-03	
50	1.903558e-02	-1.95193e-05	4.997735e-03	
51	1.953558e-02	1.971890e-05	1.789234e-03	
52	2.003558e-02	-1.95004e-05	1.736326e-05	
53	2.053558e-02	2.280491e-03	-1.75867e-05	
54	2.090860e-02	4.612104e-03	1.738810e-05	

Index   time            i(vd1)          i(vd3)          
--------------------------------------------------------------------------------
55	2.126547e-02	6.857517e-03	-1.75581e-05	
56	2.176547e-02	9.752641e-03	1.741273e-05	
57	2.226547e-02	1.245318e-02	-1.75343e-05	
58	2.276547e-02	1.474794e-02	1.743422e-05	
59	2.326547e-02	1.671715e-02	-1.75138e-05	
60	2.376547e-02	1.817236e-02	1.745431e-05	
61	2.426547e-02	1.921647e-02	-1.74939e-05	
62	2.476547e-02	1.968420e-02	1.747423e-05	
63	2.526547e-02	1.970307e-02	-1.74740e-05	
64	2.576547e-02	1.913344e-02	1.749417e-05	
65	2.626547e-02	1.812869e-02	-1.74540e-05	
66	2.676547e-02	1.657472e-02	1.751414e-05	
67	2.726547e-02	1.464963e-02	-1.74339e-05	
68	2.776547e-02	1.226268e-02	1.753470e-05	
69	2.826547e-02	9.613784e-03	-1.74123e-05	
70	2.876547e-02	6.632772e-03	1.755884e-05	
71	2.926547e-02	3.545147e-03	-1.73819e-05	
72	2.976547e-02	3.788142e-04	1.760779e-05	
73	3.026547e-02	4.205615e-05	5.412293e-04	
74	3.076547e-02	-4.22782e-05	3.767209e-03	
75	3.126547e-02	4.210302e-05	6.797200e-03	
76	3.176547e-02	-4.22485e-05	9.813473e-03	
77	3.226547e-02	4.212689e-05	1.239390e-02	
78	3.276547e-02	-4.22270e-05	1.480757e-02	
79	3.326547e-02	4.214737e-05	1.665747e-02	
80	3.376547e-02	-4.22069e-05	1.823202e-02	
81	3.426547e-02	4.216732e-05	1.915681e-02	
82	3.476547e-02	-4.21870e-05	1.974385e-02	
83	3.526547e-02	4.218725e-05	1.964341e-02	
84	3.576547e-02	-4.21670e-05	1.919310e-02	
85	3.626547e-02	4.220718e-05	1.806903e-02	
86	3.676547e-02	-4.21471e-05	1.663438e-02	
87	3.726547e-02	4.222730e-05	1.458997e-02	
88	3.776547e-02	-4.21265e-05	1.232233e-02	
89	3.826547e-02	4.224892e-05	9.554124e-03	
90	3.876547e-02	-4.21024e-05	6.692432e-03	
91	3.926547e-02	4.227934e-05	3.485480e-03	
92	3.976547e-02	-4.20534e-05	4.385440e-04	
93	4.008201e-02	4.232506e-05	-2.23522e-05	
94	4.039430e-02	1.347042e-03	2.212367e-05	
95	4.075183e-02	3.660335e-03	-2.23379e-05	
96	4.119983e-02	6.415984e-03	2.216007e-05	
97	4.169983e-02	9.422346e-03	-2.23090e-05	
98	4.219983e-02	1.208165e-02	2.218446e-05	
99	4.269983e-02	1.450322e-02	-2.22873e-05	
100	4.319983e-02	1.644780e-02	2.220503e-05	
101	4.369983e-02	1.804323e-02	-2.22672e-05	
102	4.419983e-02	1.907268e-02	2.222499e-05	
103	4.469983e-02	1.968740e-02	-2.22473e-05	
104	4.519983e-02	1.969513e-02	2.224492e-05	
105	4.569983e-02	1.927261e-02	-2.22273e-05	
106	4.619983e-02	1.825344e-02	2.226486e-05	
107	4.669983e-02	1.683999e-02	-2.22074e-05	
108	4.719983e-02	1.489071e-02	2.228495e-05	
109	4.769983e-02	1.263155e-02	-2.21869e-05	
110	4.819983e-02	9.942918e-03	2.230638e-05	
111	4.869983e-02	7.071515e-03	-2.21632e-05	
112	4.919983e-02	3.921720e-03	2.233560e-05	

Index   time            i(vd1)          i(vd3)          
--------------------------------------------------------------------------------
113	4.969983e-02	8.067999e-04	-2.21179e-05	
114	4.998899e-02	-2.38134e-05	2.232780e-05	
115	5.035200e-02	2.359899e-05	1.082650e-03	
116	5.068324e-02	-2.38198e-05	3.226592e-03	
117	5.100978e-02	2.363233e-05	5.239620e-03	
118	5.150978e-02	-2.37918e-05	8.324391e-03	
119	5.200978e-02	2.365852e-05	1.108683e-02	
120	5.250978e-02	-2.37694e-05	1.364368e-02	
121	5.300978e-02	2.367942e-05	1.573949e-02	
122	5.350978e-02	-2.37492e-05	1.750953e-02	
123	5.400978e-02	2.369942e-05	1.872119e-02	
124	5.450978e-02	-2.37293e-05	1.953265e-02	
125	5.500978e-02	2.371934e-05	1.973522e-02	
126	5.550978e-02	-2.37093e-05	1.951230e-02	
127	5.600978e-02	2.373927e-05	1.868098e-02	
128	5.650978e-02	-2.36894e-05	1.745048e-02	
129	5.700978e-02	2.375929e-05	1.566309e-02	
130	5.750978e-02	-2.36691e-05	1.355211e-02	
131	5.800978e-02	2.378026e-05	1.098246e-02	
132	5.850978e-02	-2.36465e-05	8.208499e-03	
133	5.900978e-02	2.380672e-05	5.116059e-03	
134	5.950978e-02	-2.36096e-05	1.996269e-03	
135	6.000978e-02	2.382797e-05	-2.67972e-05	
136	6.041798e-02	1.492383e-03	2.657729e-05	
137	6.082221e-02	4.111274e-03	-2.67864e-05	
138	6.121549e-02	6.508251e-03	2.661174e-05	
139	6.171549e-02	9.515700e-03	-2.67598e-05	
140	6.221549e-02	1.215693e-02	2.663597e-05	
141	6.271549e-02	1.457609e-02	-2.67382e-05	
142	6.321549e-02	1.649886e-02	2.665653e-05	
143	6.371549e-02	1.808868e-02	-2.67181e-05	
144	6.421549e-02	1.909388e-02	2.667648e-05	
145	6.471549e-02	1.970135e-02	-2.66981e-05	
146	6.521549e-02	1.968395e-02	2.669640e-05	
147	6.571549e-02	1.925410e-02	-2.66782e-05	
148	6.621549e-02	1.821054e-02	2.671633e-05	
149	6.671549e-02	1.679130e-02	-2.66582e-05	
150	6.721549e-02	1.481993e-02	2.673643e-05	
151	6.771549e-02	1.255796e-02	-2.66377e-05	
152	6.821549e-02	9.850936e-03	2.675791e-05	
153	6.871549e-02	6.981012e-03	-2.66139e-05	
154	6.921549e-02	3.818197e-03	2.678738e-05	
155	6.971549e-02	7.157671e-04	-2.65678e-05	
156	6.993008e-02	-2.41029e-05	2.678526e-05	
157	7.030527e-02	2.393420e-05	7.949212e-04	
158	7.059050e-02	-2.41641e-05	2.636992e-03	
159	7.085921e-02	2.396616e-05	4.293653e-03	
160	7.133807e-02	-2.41357e-05	7.303079e-03	
161	7.183807e-02	2.399395e-05	1.015253e-02	
162	7.233807e-02	-2.41123e-05	1.282072e-02	
163	7.283807e-02	2.401520e-05	1.504798e-02	
164	7.333807e-02	-2.40919e-05	1.696864e-02	
165	7.383807e-02	2.403525e-05	1.834290e-02	
166	7.433807e-02	-2.40719e-05	1.932790e-02	
167	7.483807e-02	2.405518e-05	1.970761e-02	
168	7.533807e-02	-2.40520e-05	1.966402e-02	
169	7.583807e-02	2.407511e-05	1.900676e-02	
170	7.633807e-02	-2.40321e-05	1.794368e-02	

Index   time            i(vd1)          i(vd3)          
--------------------------------------------------------------------------------
171	7.683807e-02	2.409510e-05	1.630987e-02	
172	7.733807e-02	-2.40119e-05	1.433772e-02	
173	7.783807e-02	2.411576e-05	1.188546e-02	
174	7.833807e-02	-2.39900e-05	9.207078e-03	
175	7.883807e-02	2.414049e-05	6.181351e-03	
176	7.933807e-02	-2.39581e-05	3.089928e-03	
177	7.983807e-02	2.419153e-05	2.092318e-05	
178	8.033807e-02	9.697358e-04	5.177589e-05	
179	8.083807e-02	4.236340e-03	-5.19892e-05	
180	8.133807e-02	7.227358e-03	5.181895e-05	
181	8.183807e-02	1.022842e-02	-5.19607e-05	
182	8.233807e-02	1.274478e-02	5.184231e-05	
183	8.283807e-02	1.512390e-02	-5.19394e-05	
184	8.333807e-02	1.689272e-02	5.186271e-05	
185	8.383807e-02	1.841882e-02	-5.19193e-05	
186	8.433807e-02	1.925198e-02	5.188265e-05	
187	8.483807e-02	1.978354e-02	-5.18994e-05	
188	8.533807e-02	1.958810e-02	5.190257e-05	
189	8.583807e-02	1.908269e-02	-5.18795e-05	
190	8.633807e-02	1.786775e-02	5.192250e-05	
191	8.683807e-02	1.638579e-02	-5.18595e-05	
192	8.733807e-02	1.426180e-02	5.194266e-05	
193	8.783807e-02	1.196138e-02	-5.18388e-05	
194	8.833807e-02	9.131163e-03	5.196453e-05	
195	8.883807e-02	6.257257e-03	-5.18141e-05	
196	8.933807e-02	3.014098e-03	5.199649e-05	
197	8.983807e-02	9.438313e-05	-5.17629e-05	
198	9.011607e-02	-2.02703e-05	5.346716e-05	
199	9.038493e-02	2.003465e-05	1.290178e-03	
200	9.063005e-02	-2.02565e-05	2.884962e-03	
201	9.102529e-02	2.006728e-05	5.339574e-03	
202	9.152529e-02	-2.02259e-05	8.411928e-03	
203	9.202529e-02	2.009331e-05	1.117318e-02	
204	9.252529e-02	-2.02036e-05	1.371251e-02	
205	9.302529e-02	2.011418e-05	1.580303e-02	
206	9.352529e-02	-2.01833e-05	1.755225e-02	
207	9.402529e-02	2.013418e-05	1.875599e-02	
208	9.452529e-02	-2.01634e-05	1.954468e-02	
209	9.502529e-02	2.015410e-05	1.973817e-02	
210	9.552529e-02	-2.01435e-05	1.949210e-02	
211	9.602529e-02	2.017404e-05	1.865214e-02	
212	9.652529e-02	-2.01235e-05	1.739971e-02	
213	9.702529e-02	2.019407e-05	1.560567e-02	
214	9.752529e-02	-2.01032e-05	1.347549e-02	
215	9.802529e-02	2.021507e-05	1.090255e-02	
216	9.852529e-02	-2.00806e-05	8.113448e-03	
217	9.902529e-02	2.024172e-05	5.022397e-03	
218	9.952529e-02	-2.00432e-05	1.894526e-03	
219	1.000253e-01	2.026200e-05	-3.08907e-05	
220	1.003948e-01	1.343363e-03	3.066938e-05	
221	1.007559e-01	3.695193e-03	-3.08833e-05	
222	1.011669e-01	6.206225e-03	3.070450e-05	
223	1.016669e-01	9.243029e-03	-3.08552e-05	
224	1.021669e-01	1.190454e-02	3.072913e-05	
225	1.026669e-01	1.436664e-02	-3.08334e-05	
226	1.031669e-01	1.632149e-02	3.074975e-05	
227	1.036669e-01	1.796399e-02	-3.08132e-05	
228	1.041669e-01	1.900881e-02	3.076971e-05	

Index   time            i(vd1)          i(vd3)          
--------------------------------------------------------------------------------
229	1.046669e-01	1.967420e-02	-3.07933e-05	
230	1.051669e-01	1.969923e-02	3.078964e-05	
231	1.056669e-01	1.932760e-02	-3.07734e-05	
232	1.061669e-01	1.832425e-02	3.080956e-05	
233	1.066669e-01	1.695856e-02	-3.07534e-05	
234	1.071669e-01	1.502036e-02	3.082964e-05	
235	1.076669e-01	1.280269e-02	-3.07330e-05	
236	1.081669e-01	1.011753e-02	3.085097e-05	
237	1.086669e-01	7.278577e-03	-3.07095e-05	
238	1.091669e-01	4.121589e-03	3.087963e-05	
239	1.096669e-01	1.015795e-03	-3.06659e-05	
240	1.099486e-01	-2.51535e-05	3.088535e-05	
241	1.103789e-01	2.494796e-05	1.247830e-03	
242	1.107092e-01	-2.51656e-05	3.393444e-03	
243	1.110261e-01	2.497979e-05	5.340056e-03	
244	1.115261e-01	-2.51384e-05	8.421381e-03	
245	1.120261e-01	2.500580e-05	1.117233e-02	
246	1.125261e-01	-2.51160e-05	1.372096e-02	
247	1.130261e-01	2.502667e-05	1.580111e-02	
248	1.135261e-01	-2.50958e-05	1.755942e-02	
249	1.140261e-01	2.504666e-05	1.875264e-02	
250	1.145261e-01	-2.50759e-05	1.955033e-02	
251	1.150261e-01	2.506659e-05	1.973324e-02	
252	1.155261e-01	-2.50559e-05	1.949615e-02	
253	1.160261e-01	2.508652e-05	1.864564e-02	
254	1.165261e-01	-2.50360e-05	1.740225e-02	
255	1.170261e-01	2.510655e-05	1.559774e-02	
256	1.175261e-01	-2.50157e-05	1.347674e-02	
257	1.180261e-01	2.512755e-05	1.089352e-02	
258	1.185261e-01	-2.49930e-05	8.113782e-03	
259	1.190261e-01	2.515421e-05	5.012706e-03	
260	1.195261e-01	-2.49556e-05	1.894395e-03	
261	1.200261e-01	2.517409e-05	-3.12275e-05	
262	1.204371e-01	1.608140e-03	3.100518e-05	
263	1.208390e-01	4.221948e-03	-3.12124e-05	
264	1.212760e-01	6.872558e-03	3.104024e-05	
265	1.217760e-01	9.861688e-03	-3.11851e-05	
266	1.222760e-01	1.245786e-02	3.106403e-05	
267	1.227760e-01	1.484161e-02	-3.11637e-05	
268	1.232760e-01	1.670475e-02	3.108450e-05	
269	1.237760e-01	1.824733e-02	-3.11436e-05	
270	1.242760e-01	1.918380e-02	3.110444e-05	
271	1.247760e-01	1.973782e-02	-3.11237e-05	
272	1.252760e-01	1.964853e-02	3.112437e-05	
273	1.257760e-01	1.916522e-02	-3.11037e-05	
274	1.262760e-01	1.805287e-02	3.114430e-05	
275	1.267760e-01	1.658632e-02	-3.10838e-05	
276	1.272760e-01	1.455524e-02	3.116442e-05	
277	1.277760e-01	1.225778e-02	-3.10632e-05	
278	1.282760e-01	9.505440e-03	3.118608e-05	
279	1.287760e-01	6.616883e-03	-3.10390e-05	
280	1.292760e-01	3.429508e-03	3.121670e-05	
281	1.297760e-01	3.679938e-04	-3.09894e-05	
282	1.299135e-01	-2.01589e-05	3.119426e-05	
283	1.301884e-01	2.011724e-05	1.405591e-04	
284	1.303863e-01	-2.03688e-05	1.341752e-03	
285	1.305784e-01	2.014428e-05	2.514230e-03	
286	1.309323e-01	-2.03398e-05	4.798001e-03	

Index   time            i(vd1)          i(vd3)          
--------------------------------------------------------------------------------
287	1.314323e-01	2.017557e-05	7.822025e-03	
288	1.319323e-01	-2.03126e-05	1.071283e-02	
289	1.324323e-01	2.019836e-05	1.323302e-02	
290	1.329323e-01	-2.02916e-05	1.547759e-02	
291	1.334323e-01	2.021868e-05	1.722783e-02	
292	1.339323e-01	-2.02716e-05	1.860179e-02	
293	1.344323e-01	2.023862e-05	1.940350e-02	
294	1.349323e-01	-2.02516e-05	1.977456e-02	
295	1.354323e-01	2.025856e-05	1.954414e-02	
296	1.359323e-01	-2.02317e-05	1.887954e-02	
297	1.364323e-01	2.027850e-05	1.763579e-02	
298	1.369323e-01	-2.02117e-05	1.600552e-02	
299	1.374323e-01	2.029873e-05	1.386803e-02	
300	1.379323e-01	-2.01909e-05	1.143889e-02	
301	1.384323e-01	2.032099e-05	8.618540e-03	
302	1.389323e-01	-2.01653e-05	5.643464e-03	
303	1.394323e-01	2.035543e-05	2.445078e-03	
304	1.399323e-01	-2.01295e-05	2.285208e-05	
305	1.403594e-01	1.175001e-03	-2.30325e-05	
306	1.406904e-01	3.225392e-03	2.281251e-05	
307	1.410130e-01	5.306653e-03	-2.29996e-05	
308	1.415130e-01	8.296989e-03	2.284025e-05	
309	1.420130e-01	1.115087e-02	-2.29734e-05	
310	1.425130e-01	1.361231e-02	2.286264e-05	
311	1.430130e-01	1.579875e-02	-2.29525e-05	
312	1.435130e-01	1.747269e-02	2.288289e-05	
313	1.440130e-01	1.877442e-02	-2.29325e-05	
314	1.445130e-01	1.948936e-02	2.290281e-05	
315	1.450130e-01	1.978175e-02	-2.29126e-05	
316	1.455130e-01	1.946222e-02	2.292274e-05	
317	1.460130e-01	1.872083e-02	-2.28927e-05	
318	1.465130e-01	1.739398e-02	2.294269e-05	
319	1.470130e-01	1.569692e-02	-2.28726e-05	
320	1.475130e-01	1.349016e-02	2.296298e-05	
321	1.480130e-01	1.101154e-02	-2.28517e-05	
322	1.485130e-01	8.142667e-03	2.298558e-05	
323	1.490130e-01	5.142233e-03	-2.28252e-05	
324	1.495130e-01	1.929062e-03	2.302256e-05	
325	1.500130e-01	1.602650e-05	-2.28034e-05	
326	1.505130e-01	-1.62481e-05	2.136739e-03	
327	1.508588e-01	1.604610e-05	4.299662e-03	
328	1.511863e-01	-1.62204e-05	6.372939e-03	
329	1.516863e-01	1.607088e-05	9.305528e-03	
330	1.521863e-01	-1.61960e-05	1.205048e-02	
331	1.526863e-01	1.609262e-05	1.440545e-02	
332	1.531863e-01	-1.61754e-05	1.643810e-02	
333	1.536863e-01	1.611275e-05	1.796903e-02	
334	1.541863e-01	-1.61555e-05	1.908863e-02	
335	1.546863e-01	1.613267e-05	1.964035e-02	
336	1.551863e-01	-1.61356e-05	1.973899e-02	
337	1.556863e-01	1.615261e-05	1.925355e-02	
338	1.561863e-01	-1.61156e-05	1.832468e-02	
339	1.566863e-01	1.617257e-05	1.684701e-02	
340	1.571863e-01	-1.60955e-05	1.498607e-02	
341	1.576863e-01	1.619303e-05	1.266009e-02	
342	1.581863e-01	-1.60742e-05	1.005668e-02	
343	1.586863e-01	1.621662e-05	7.114721e-03	
344	1.591863e-01	-1.60452e-05	4.045822e-03	

Index   time            i(vd1)          i(vd3)          
--------------------------------------------------------------------------------
345	1.596863e-01	1.626123e-05	8.499200e-04	
346	1.601863e-01	1.259313e-04	3.403902e-05	
347	1.606863e-01	3.256645e-03	-3.42702e-05	
348	1.611863e-01	6.321315e-03	3.408931e-05	
349	1.616863e-01	9.357253e-03	-3.42389e-05	
350	1.621863e-01	1.200067e-02	3.411380e-05	
351	1.626863e-01	1.445578e-02	-3.42172e-05	
352	1.631863e-01	1.638773e-02	3.413440e-05	
353	1.636863e-01	1.801937e-02	-3.41971e-05	
354	1.641863e-01	1.903829e-02	3.415436e-05	
355	1.646863e-01	1.969069e-02	-3.41772e-05	
356	1.651863e-01	1.968866e-02	3.417429e-05	
357	1.656863e-01	1.930389e-02	-3.41572e-05	
358	1.661863e-01	1.827434e-02	3.419422e-05	
359	1.666863e-01	1.689735e-02	-3.41373e-05	
360	1.671863e-01	1.493573e-02	3.421431e-05	
361	1.676863e-01	1.271044e-02	-3.41168e-05	
362	1.681863e-01	1.000633e-02	3.423570e-05	
363	1.686863e-01	7.165085e-03	-3.40932e-05	
364	1.691863e-01	3.995379e-03	3.426468e-05	
365	1.696863e-01	9.007919e-04	-3.40487e-05	
366	1.700737e-01	-2.80286e-05	3.430184e-05	
367	1.704805e-01	2.780004e-05	1.886071e-03	
368	1.708656e-01	-2.80035e-05	4.385972e-03	
369	1.713373e-01	2.783418e-05	7.246149e-03	
370	1.718373e-01	-2.79759e-05	1.020026e-02	
371	1.723373e-01	2.785756e-05	1.276501e-02	
372	1.728373e-01	-2.79547e-05	1.509676e-02	
373	1.733373e-01	2.787797e-05	1.691413e-02	
374	1.738373e-01	-2.79346e-05	1.839305e-02	
375	1.743373e-01	2.789791e-05	1.927488e-02	
376	1.748373e-01	-2.79147e-05	1.975932e-02	
377	1.753373e-01	2.791783e-05	1.961259e-02	
378	1.758373e-01	-2.78948e-05	1.906006e-02	
379	1.763373e-01	2.793777e-05	1.789378e-02	
380	1.768373e-01	-2.78748e-05	1.636462e-02	
381	1.773373e-01	2.795793e-05	1.428915e-02	
382	1.778373e-01	-2.78541e-05	1.194138e-02	
383	1.783373e-01	2.797980e-05	9.159496e-03	
384	1.788373e-01	-2.78294e-05	6.238051e-03	
385	1.793373e-01	2.801175e-05	3.042807e-03	
386	1.798373e-01	-2.77784e-05	7.625627e-05	
387	1.799364e-01	2.794303e-05	-7.14285e-06	
388	1.800711e-01	-2.76975e-05	6.989967e-06	
389	1.802075e-01	2.710758e-04	-7.19203e-06	
390	1.803327e-01	9.786855e-04	6.938853e-06	
391	1.805103e-01	2.109619e-03	-7.17217e-06	
392	1.806760e-01	3.149611e-03	6.960933e-06	
393	1.810074e-01	5.256119e-03	-7.14888e-06	
394	1.815074e-01	8.279506e-03	6.989242e-06	
395	1.820074e-01	1.110473e-02	-7.12268e-06	
396	1.825074e-01	1.360167e-02	7.011658e-06	
397	1.830074e-01	1.576100e-02	-7.10178e-06	
398	1.835074e-01	1.747156e-02	7.031911e-06	
399	1.840074e-01	1.874712e-02	-7.08178e-06	
400	1.845074e-01	1.949941e-02	7.051843e-06	
401	1.850074e-01	1.976606e-02	-7.06186e-06	
402	1.855074e-01	1.948403e-02	7.071776e-06	

Index   time            i(vd1)          i(vd3)          
--------------------------------------------------------------------------------
403	1.860074e-01	1.871673e-02	-7.04193e-06	
404	1.865074e-01	1.742693e-02	7.091722e-06	
405	1.870074e-01	1.570326e-02	-7.02191e-06	
406	1.875074e-01	1.353255e-02	7.112009e-06	
407	1.880074e-01	1.102611e-02	-7.00095e-06	
408	1.885074e-01	8.191790e-03	7.134592e-06	
409	1.890074e-01	5.161854e-03	-6.97453e-06	
410	1.895074e-01	1.980536e-03	7.171396e-06	
411	1.900074e-01	8.413601e-06	-6.95244e-06	
412	1.903306e-01	-8.62719e-06	9.830452e-04	
413	1.905256e-01	8.394934e-06	2.191092e-03	
414	1.907118e-01	-8.60344e-06	3.392810e-03	
415	1.910841e-01	8.419900e-06	5.717839e-03	
