
Circuit: improved-half-wave-rectifier-a

                         improved-half-wave-rectifier-a
                         Transient Analysis  Fri Jan 28 22:45:00  2022
--------------------------------------------------------------------------------
Index   time            v(1)            v(3)            
--------------------------------------------------------------------------------
0	0.000000e+00	0.000000e+00	8.569207e-04	
1	2.000000e-07	6.283184e-03	-3.55527e-04	
2	2.017638e-07	6.338596e-03	-3.66316e-04	
3	2.052915e-07	6.449420e-03	-3.88086e-04	
4	2.123468e-07	6.671069e-03	-4.32803e-04	
5	2.264574e-07	7.114366e-03	-5.27112e-04	
6	2.546786e-07	8.000960e-03	-7.36259e-04	
7	3.111210e-07	9.774148e-03	-1.24145e-03	
8	4.091990e-07	1.285535e-02	-2.39983e-03	
9	5.221421e-07	1.640355e-02	-4.15234e-03	
10	6.965363e-07	2.188226e-02	-7.59550e-03	
11	9.627844e-07	3.024658e-02	-1.41128e-02	
12	1.261232e-06	3.962236e-02	-2.25954e-02	
13	1.638449e-06	5.147249e-02	-3.42803e-02	
14	2.032949e-06	6.386525e-02	-4.70864e-02	
15	2.581217e-06	8.108776e-02	-6.52236e-02	
16	2.893178e-06	9.088686e-02	-7.54437e-02	
17	3.086667e-06	9.696441e-02	-8.14741e-02	
18	3.218521e-06	1.011059e-01	-8.51980e-02	
19	3.328138e-06	1.045489e-01	-8.77990e-02	
20	3.433397e-06	1.078550e-01	-8.95680e-02	
21	3.564851e-06	1.119837e-01	-9.01672e-02	
22	3.691705e-06	1.159679e-01	-8.83677e-02	
23	3.822503e-06	1.200759e-01	-8.34108e-02	
24	3.965849e-06	1.245779e-01	-7.40580e-02	
25	4.119085e-06	1.293904e-01	-5.99006e-02	
26	4.294660e-06	1.349044e-01	-3.97781e-02	
27	4.473062e-06	1.405069e-01	-1.70192e-02	
28	4.638896e-06	1.457146e-01	4.535058e-03	
29	4.805152e-06	1.509354e-01	2.529460e-02	
30	5.009873e-06	1.573638e-01	4.866161e-02	
31	5.279317e-06	1.658242e-01	7.504700e-02	
32	5.539674e-06	1.739989e-01	9.599104e-02	
33	5.824779e-06	1.829500e-01	1.147178e-01	
34	6.144243e-06	1.929791e-01	1.318982e-01	
35	6.566612e-06	2.062377e-01	1.507122e-01	
36	7.021171e-06	2.205050e-01	1.681088e-01	
37	7.452295e-06	2.340352e-01	1.832192e-01	
38	7.955215e-06	2.498164e-01	2.000505e-01	
39	8.561405e-06	2.688348e-01	2.198110e-01	
40	9.388472e-06	2.947765e-01	2.463867e-01	
41	1.049970e-05	3.296185e-01	2.818081e-01	
42	1.223333e-05	3.839430e-01	3.367788e-01	
43	1.515518e-05	4.753947e-01	4.289696e-01	
44	2.099887e-05	6.577867e-01	6.123081e-01	
45	2.747492e-05	8.588694e-01	8.140127e-01	
46	3.740761e-05	1.164404e+00	1.120452e+00	
47	4.796599e-05	1.484188e+00	1.441151e+00	
48	6.796599e-05	2.070905e+00	2.029976e+00	
49	8.664029e-05	2.589426e+00	2.550943e+00	
50	1.066403e-04	3.105090e+00	3.069746e+00	
51	1.266403e-04	3.571784e+00	3.540105e+00	
52	1.466403e-04	3.982149e+00	3.954573e+00	
53	1.666403e-04	4.329713e+00	4.306687e+00	
54	1.866403e-04	4.608995e+00	4.590810e+00	

Index   time            v(1)            v(3)            
--------------------------------------------------------------------------------
55	2.066403e-04	4.815590e+00	4.802567e+00	
56	2.266403e-04	4.946241e+00	4.938504e+00	
57	2.466403e-04	4.998886e+00	4.996605e+00	
58	2.666403e-04	4.972696e+00	4.975824e+00	
59	2.866403e-04	4.868084e+00	4.876628e+00	
60	3.066403e-04	4.686699e+00	4.700442e+00	
61	3.266403e-04	4.431402e+00	4.450191e+00	
62	3.466403e-04	4.106219e+00	4.129678e+00	
63	3.666403e-04	3.716279e+00	3.744107e+00	
64	3.866403e-04	3.267730e+00	3.299419e+00	
65	4.066403e-04	2.767648e+00	2.802777e+00	
66	4.266403e-04	2.223918e+00	2.261888e+00	
67	4.466403e-04	1.645116e+00	1.685453e+00	
68	4.666403e-04	1.040369e+00	1.082561e+00	
69	4.866403e-04	4.192149e-01	4.633440e-01	
70	4.935254e-04	2.033495e-01	2.496981e-01	
71	4.968173e-04	9.997947e-02	1.493465e-01	
72	4.984372e-04	4.909572e-02	1.021273e-01	
73	4.994581e-04	1.702361e-02	7.506755e-02	
74	5.001278e-04	-4.01340e-03	6.001928e-02	
75	5.005971e-04	-1.87597e-02	5.212098e-02	
76	5.011679e-04	-3.66912e-02	4.779800e-02	
77	5.016108e-04	-5.06050e-02	4.972191e-02	
78	5.019002e-04	-5.96954e-02	5.374356e-02	
79	5.022562e-04	-7.08790e-02	6.121027e-02	
80	5.026048e-04	-8.18277e-02	7.047186e-02	
81	5.031168e-04	-9.79101e-02	8.601276e-02	
82	5.035708e-04	-1.12171e-01	1.006629e-01	
83	5.037890e-04	-1.19024e-01	1.076725e-01	
84	5.039839e-04	-1.25143e-01	1.136378e-01	
85	5.042192e-04	-1.32534e-01	1.202250e-01	
86	5.043163e-04	-1.35585e-01	1.227440e-01	
87	5.044041e-04	-1.38340e-01	1.249565e-01	
88	5.045208e-04	-1.42006e-01	1.278695e-01	
89	5.046593e-04	-1.46355e-01	1.313616e-01	
90	5.047369e-04	-1.48792e-01	1.333581e-01	
91	5.048056e-04	-1.50951e-01	1.351607e-01	
92	5.048842e-04	-1.53417e-01	1.372611e-01	
93	5.049717e-04	-1.56166e-01	1.396527e-01	
94	5.050595e-04	-1.58921e-01	1.421003e-01	
95	5.051561e-04	-1.61955e-01	1.448479e-01	
96	5.052636e-04	-1.65331e-01	1.479617e-01	
97	5.053984e-04	-1.69563e-01	1.519322e-01	
98	5.055701e-04	-1.74955e-01	1.570767e-01	
99	5.058447e-04	-1.83575e-01	1.654339e-01	
100	5.062474e-04	-1.96218e-01	1.778687e-01	
101	5.066988e-04	-2.10387e-01	1.919319e-01	
102	5.073733e-04	-2.31557e-01	2.130367e-01	
103	5.085737e-04	-2.69221e-01	2.506654e-01	
104	5.098293e-04	-3.08600e-01	2.900316e-01	
105	5.114042e-04	-3.57968e-01	3.393916e-01	
106	5.132771e-04	-4.16629e-01	3.980515e-01	
107	5.161307e-04	-5.05893e-01	4.873271e-01	
108	5.193506e-04	-6.06420e-01	5.878819e-01	
109	5.239102e-04	-7.48338e-01	7.298574e-01	
110	5.289079e-04	-9.03183e-01	8.847898e-01	
111	5.368960e-04	-1.14877e+00	1.130555e+00	
112	5.447037e-04	-1.38601e+00	1.368033e+00	

Index   time            v(1)            v(3)            
--------------------------------------------------------------------------------
113	5.603189e-04	-1.84993e+00	1.832530e+00	
114	5.759068e-04	-2.29530e+00	2.278693e+00	
115	5.959068e-04	-2.83393e+00	2.818536e+00	
116	6.159068e-04	-3.32787e+00	3.314012e+00	
117	6.359068e-04	-3.76933e+00	3.757176e+00	
118	6.559068e-04	-4.15135e+00	4.141157e+00	
119	6.759068e-04	-4.46789e+00	4.459792e+00	
120	6.959068e-04	-4.71398e+00	4.708152e+00	
121	7.159068e-04	-4.88572e+00	4.882234e+00	
122	7.359068e-04	-4.98041e+00	4.979370e+00	
123	7.559068e-04	-4.99656e+00	4.997959e+00	
124	7.759068e-04	-4.93391e+00	4.937770e+00	
125	7.959068e-04	-4.79344e+00	4.799697e+00	
126	8.159068e-04	-4.57739e+00	4.585967e+00	
127	8.359068e-04	-4.28914e+00	4.299907e+00	
128	8.559068e-04	-3.93325e+00	3.946067e+00	
129	8.759068e-04	-3.51533e+00	3.529993e+00	
130	8.959068e-04	-3.04198e+00	3.058275e+00	
131	9.159068e-04	-2.52065e+00	2.538328e+00	
132	9.359068e-04	-1.95956e+00	1.978372e+00	
133	9.559068e-04	-1.36758e+00	1.387216e+00	
134	9.759068e-04	-7.54023e-01	7.741931e-01	
135	9.906674e-04	-2.93023e-01	3.133179e-01	
136	9.962487e-04	-1.17841e-01	1.380335e-01	
137	9.988879e-04	-3.49375e-02	5.485766e-02	
138	1.000089e-03	2.788188e-03	1.669962e-02	
139	1.000869e-03	2.730609e-02	-8.46050e-03	
140	1.001616e-03	5.075957e-02	-3.29741e-02	
141	1.002406e-03	7.557269e-02	-5.93406e-02	
142	1.003205e-03	1.006944e-01	-8.60113e-02	
143	1.003533e-03	1.109953e-01	-9.62529e-02	
144	1.003726e-03	1.170435e-01	-1.01074e-01	
145	1.003840e-03	1.206261e-01	-1.02826e-01	
146	1.003961e-03	1.244317e-01	-1.02952e-01	
147	1.004074e-03	1.279644e-01	-1.00792e-01	
148	1.004197e-03	1.318341e-01	-9.52694e-02	
149	1.004337e-03	1.362286e-01	-8.47131e-02	
150	1.004483e-03	1.408048e-01	-6.92932e-02	
151	1.004655e-03	1.462255e-01	-4.67607e-02	
152	1.004834e-03	1.518489e-01	-2.07919e-02	
153	1.004997e-03	1.569550e-01	3.153493e-03	
154	1.005160e-03	1.620750e-01	2.611834e-02	
155	1.005353e-03	1.681291e-01	5.086769e-02	
156	1.005587e-03	1.754697e-01	7.676857e-02	
157	1.005838e-03	1.833611e-01	9.973815e-02	
158	1.006094e-03	1.913880e-01	1.187235e-01	
159	1.006396e-03	2.008676e-01	1.369124e-01	
160	1.006765e-03	2.124583e-01	1.549888e-01	
161	1.007143e-03	2.243367e-01	1.706109e-01	
162	1.007568e-03	2.376658e-01	1.862577e-01	
163	1.007998e-03	2.511608e-01	2.010403e-01	
164	1.008538e-03	2.680883e-01	2.188816e-01	
165	1.009183e-03	2.883366e-01	2.397616e-01	
166	1.010082e-03	3.165332e-01	2.685174e-01	
167	1.011306e-03	3.548983e-01	3.074134e-01	
168	1.013300e-03	4.173583e-01	3.704997e-01	
169	1.016891e-03	5.296626e-01	4.835586e-01	
170	1.023795e-03	7.447602e-01	6.995976e-01	

Index   time            v(1)            v(3)            
--------------------------------------------------------------------------------
171	1.031042e-03	9.690355e-01	9.244983e-01	
172	1.042418e-03	1.316871e+00	1.273359e+00	
173	1.054380e-03	1.675345e+00	1.632930e+00	
174	1.074380e-03	2.252575e+00	2.212415e+00	
175	1.094380e-03	2.794281e+00	2.756971e+00	
176	1.114380e-03	3.291919e+00	3.257917e+00	
177	1.134380e-03	3.737642e+00	3.707515e+00	
178	1.154380e-03	4.124420e+00	4.098545e+00	
179	1.174380e-03	4.446153e+00	4.424980e+00	
180	1.194380e-03	4.697768e+00	4.681540e+00	
181	1.214380e-03	4.875296e+00	4.864314e+00	
182	1.234380e-03	4.975938e+00	4.970293e+00	
183	1.254380e-03	4.998107e+00	4.997933e+00	
184	1.274380e-03	4.941452e+00	4.946677e+00	
185	1.294380e-03	4.806868e+00	4.817457e+00	
186	1.314380e-03	4.596476e+00	4.612194e+00	
187	1.334380e-03	4.313596e+00	4.334241e+00	
188	1.354380e-03	3.962687e+00	3.987876e+00	
189	1.374380e-03	3.549284e+00	3.578670e+00	
190	1.394380e-03	3.079907e+00	3.112981e+00	
191	1.414380e-03	2.561959e+00	2.598258e+00	
192	1.434380e-03	2.003606e+00	2.042548e+00	
193	1.454380e-03	1.413655e+00	1.454752e+00	
194	1.474380e-03	8.014106e-01	8.442803e-01	
195	1.494380e-03	1.765271e-01	2.223405e-01	
196	1.500331e-03	-1.03894e-02	5.307134e-02	
197	1.502135e-03	-6.70589e-02	5.369988e-02	
198	1.502931e-03	-9.20655e-02	7.874208e-02	
199	1.503459e-03	-1.08659e-01	9.680476e-02	
200	1.503710e-03	-1.16546e-01	1.048523e-01	
201	1.503906e-03	-1.22689e-01	1.109483e-01	
202	1.504122e-03	-1.29475e-01	1.171334e-01	
203	1.504242e-03	-1.33261e-01	1.203260e-01	
204	1.504337e-03	-1.36229e-01	1.227411e-01	
205	1.504460e-03	-1.40082e-01	1.258365e-01	
206	1.504606e-03	-1.44679e-01	1.295612e-01	
207	1.504679e-03	-1.46982e-01	1.314629e-01	
208	1.504747e-03	-1.49094e-01	1.332371e-01	
209	1.504826e-03	-1.51589e-01	1.353728e-01	
210	1.504915e-03	-1.54397e-01	1.378268e-01	
211	1.505005e-03	-1.57198e-01	1.403259e-01	
212	1.505103e-03	-1.60279e-01	1.431262e-01	
213	1.505212e-03	-1.63705e-01	1.462951e-01	
214	1.505349e-03	-1.68007e-01	1.503431e-01	
215	1.505523e-03	-1.73479e-01	1.555740e-01	
216	1.505803e-03	-1.82261e-01	1.641024e-01	
217	1.506221e-03	-1.95402e-01	1.770397e-01	
218	1.506686e-03	-2.09981e-01	1.915193e-01	
219	1.507408e-03	-2.32640e-01	2.141166e-01	
220	1.508608e-03	-2.70286e-01	2.517300e-01	
221	1.509896e-03	-3.10700e-01	2.921315e-01	
222	1.511471e-03	-3.60075e-01	3.414986e-01	
223	1.513357e-03	-4.19134e-01	4.005566e-01	
224	1.516158e-03	-5.06757e-01	4.881915e-01	
225	1.519334e-03	-6.05897e-01	5.873581e-01	
226	1.523654e-03	-7.40379e-01	7.218941e-01	
227	1.528609e-03	-8.93944e-01	8.755447e-01	
228	1.536545e-03	-1.13803e+00	1.119804e+00	

Index   time            v(1)            v(3)            
--------------------------------------------------------------------------------
229	1.544211e-03	-1.37115e+00	1.353153e+00	
230	1.559545e-03	-1.82732e+00	1.809878e+00	
231	1.574429e-03	-2.25394e+00	2.237259e+00	
232	1.594429e-03	-2.79555e+00	2.780053e+00	
233	1.614429e-03	-3.29307e+00	3.279093e+00	
234	1.634429e-03	-3.73866e+00	3.726366e+00	
235	1.654429e-03	-4.12529e+00	4.114947e+00	
236	1.674429e-03	-4.44685e+00	4.438591e+00	
237	1.694429e-03	-4.69829e+00	4.692298e+00	
238	1.714429e-03	-4.87564e+00	4.871974e+00	
239	1.734429e-03	-4.97609e+00	4.974868e+00	
240	1.754429e-03	-4.99806e+00	4.999285e+00	
241	1.774429e-03	-4.94122e+00	4.944904e+00	
242	1.794429e-03	-4.80645e+00	4.812525e+00	
243	1.814429e-03	-4.59587e+00	4.604288e+00	
244	1.834429e-03	-4.31282e+00	4.323431e+00	
245	1.854429e-03	-3.96175e+00	3.974423e+00	
246	1.874429e-03	-3.54820e+00	3.562734e+00	
247	1.894429e-03	-3.07870e+00	3.094886e+00	
248	1.914429e-03	-2.56064e+00	2.578230e+00	
249	1.934429e-03	-2.00220e+00	2.020937e+00	
250	1.954429e-03	-1.41218e+00	1.431773e+00	
251	1.974429e-03	-7.99897e-01	8.200395e-01	
252	1.989345e-03	-3.34500e-01	3.547942e-01	
253	1.995515e-03	-1.40876e-01	1.610977e-01	
254	1.997835e-03	-6.80088e-02	8.807770e-02	
255	1.999115e-03	-2.77885e-02	4.763708e-02	
256	1.999863e-03	-4.30579e-03	2.389469e-02	
257	2.000525e-03	1.649450e-02	2.670628e-03	
258	2.001237e-03	3.884559e-02	-2.04725e-02	
259	2.001938e-03	6.088774e-02	-4.36992e-02	
260	2.002691e-03	8.453863e-02	-6.89287e-02	
261	2.003378e-03	1.061254e-01	-9.14783e-02	
262	2.003681e-03	1.156322e-01	-9.99206e-02	
263	2.003836e-03	1.205036e-01	-1.02631e-01	
264	2.003949e-03	1.240478e-01	-1.02982e-01	
265	2.004053e-03	1.273266e-01	-1.01416e-01	
266	2.004178e-03	1.312397e-01	-9.65101e-02	
267	2.004331e-03	1.360397e-01	-8.55686e-02	
268	2.004470e-03	1.404017e-01	-7.12104e-02	
269	2.004644e-03	1.458784e-01	-4.87806e-02	
270	2.004857e-03	1.525520e-01	-1.80448e-02	
271	2.005025e-03	1.578311e-01	6.677092e-03	
272	2.005193e-03	1.631262e-01	3.019681e-02	
273	2.005396e-03	1.694916e-01	5.569217e-02	
274	2.005657e-03	1.776752e-01	8.345646e-02	
275	2.005897e-03	1.852157e-01	1.043301e-01	
276	2.006167e-03	1.937010e-01	1.234387e-01	
277	2.006472e-03	2.032600e-01	1.408934e-01	
278	2.006878e-03	2.160158e-01	1.598945e-01	
279	2.007302e-03	2.293327e-01	1.766578e-01	
280	2.007710e-03	2.421206e-01	1.912224e-01	
281	2.008174e-03	2.566850e-01	2.069249e-01	
282	2.008730e-03	2.741363e-01	2.251523e-01	
283	2.009469e-03	2.972936e-01	2.489230e-01	
284	2.010436e-03	3.276166e-01	2.797718e-01	
285	2.011902e-03	3.735574e-01	3.262833e-01	
286	2.014201e-03	4.455614e-01	3.989258e-01	

Index   time            v(1)            v(3)            
--------------------------------------------------------------------------------
287	2.018801e-03	5.892752e-01	5.434946e-01	
288	2.025279e-03	7.908204e-01	7.457669e-01	
289	2.035300e-03	1.099925e+00	1.055785e+00	
290	2.045653e-03	1.414641e+00	1.371388e+00	
291	2.065653e-03	2.004547e+00	1.963353e+00	
292	2.085653e-03	2.562841e+00	2.524197e+00	
293	2.105653e-03	3.080717e+00	3.045224e+00	
294	2.125653e-03	3.550008e+00	3.518122e+00	
295	2.145653e-03	3.963314e+00	3.935538e+00	
296	2.165653e-03	4.314115e+00	4.290847e+00	
297	2.185653e-03	4.596881e+00	4.578459e+00	
298	2.205653e-03	4.807151e+00	4.793861e+00	
299	2.225653e-03	4.941609e+00	4.933613e+00	
300	2.245653e-03	4.998135e+00	4.995580e+00	
301	2.265653e-03	4.975838e+00	4.978703e+00	
302	2.285653e-03	4.875068e+00	4.883346e+00	
303	2.305653e-03	4.697416e+00	4.710909e+00	
304	2.325653e-03	4.445683e+00	4.464229e+00	
305	2.345653e-03	4.123839e+00	4.147076e+00	
306	2.365653e-03	3.736959e+00	3.764582e+00	
307	2.385653e-03	3.291145e+00	3.322654e+00	
308	2.405653e-03	2.793428e+00	2.828400e+00	
309	2.425653e-03	2.251657e+00	2.289498e+00	
310	2.445653e-03	1.674376e+00	1.714610e+00	
311	2.465653e-03	1.070689e+00	1.112796e+00	
312	2.485653e-03	4.501169e-01	4.941164e-01	
313	2.493131e-03	2.157226e-01	2.618400e-01	
314	2.496579e-03	1.074569e-01	1.564769e-01	
315	2.498299e-03	5.344133e-02	1.060438e-01	
316	2.499385e-03	1.930945e-02	7.687059e-02	
317	2.500077e-03	-2.42314e-03	6.101515e-02	
318	2.500565e-03	-1.77379e-02	5.256116e-02	
319	2.501174e-03	-3.68882e-02	4.781177e-02	
320	2.501669e-03	-5.24388e-02	5.035690e-02	
321	2.501971e-03	-6.19296e-02	5.502099e-02	
322	2.502339e-03	-7.34744e-02	6.325135e-02	
323	2.502697e-03	-8.47133e-02	7.312744e-02	
324	2.503187e-03	-1.00102e-01	8.824872e-02	
325	2.503576e-03	-1.12336e-01	1.008521e-01	
326	2.503785e-03	-1.18903e-01	1.075640e-01	
327	2.503979e-03	-1.25003e-01	1.135110e-01	
328	2.504211e-03	-1.32285e-01	1.200090e-01	
329	2.504309e-03	-1.35348e-01	1.225432e-01	
330	2.504397e-03	-1.38109e-01	1.247621e-01	
331	2.504515e-03	-1.41816e-01	1.277089e-01	
332	2.504687e-03	-1.47235e-01	1.320719e-01	
333	2.504770e-03	-1.49846e-01	1.342270e-01	
334	2.504837e-03	-1.51941e-01	1.359916e-01	
335	2.504915e-03	-1.54372e-01	1.380785e-01	
336	2.504999e-03	-1.57024e-01	1.404023e-01	
337	2.505090e-03	-1.59881e-01	1.429575e-01	
338	2.505189e-03	-1.62981e-01	1.457825e-01	
339	2.505305e-03	-1.66630e-01	1.491684e-01	
340	2.505450e-03	-1.71187e-01	1.534698e-01	
341	2.505651e-03	-1.77493e-01	1.595201e-01	
342	2.506020e-03	-1.89072e-01	1.708184e-01	
343	2.506513e-03	-2.04558e-01	1.861333e-01	
344	2.506985e-03	-2.19357e-01	2.008662e-01	

Index   time            v(1)            v(3)            
--------------------------------------------------------------------------------
345	2.507928e-03	-2.48951e-01	2.304082e-01	
346	2.508943e-03	-2.80804e-01	2.622443e-01	
347	2.510634e-03	-3.33815e-01	3.152412e-01	
348	2.512464e-03	-3.91170e-01	3.725917e-01	
349	2.514645e-03	-4.59438e-01	4.408649e-01	
350	2.517283e-03	-5.41880e-01	5.233227e-01	
351	2.521465e-03	-6.72301e-01	6.537856e-01	
352	2.526102e-03	-8.16344e-01	7.978989e-01	
353	2.533149e-03	-1.03388e+00	1.015577e+00	
354	2.540402e-03	-1.25566e+00	1.237550e+00	
355	2.554907e-03	-1.69095e+00	1.673318e+00	
356	2.569524e-03	-2.11536e+00	2.098418e+00	
357	2.589524e-03	-2.66650e+00	2.650679e+00	
358	2.609524e-03	-3.17559e+00	3.161221e+00	
359	2.629524e-03	-3.63460e+00	3.621861e+00	
360	2.649524e-03	-4.03628e+00	4.025451e+00	
361	2.669524e-03	-4.37431e+00	4.365521e+00	
362	2.689524e-03	-4.64336e+00	4.636801e+00	
363	2.709524e-03	-4.83918e+00	4.834931e+00	
364	2.729524e-03	-4.95868e+00	4.956858e+00	
365	2.749524e-03	-4.99998e+00	5.000595e+00	
366	2.769524e-03	-4.96242e+00	4.965511e+00	
367	2.789524e-03	-4.84661e+00	4.852107e+00	
368	2.809524e-03	-4.65436e+00	4.662218e+00	
369	2.829524e-03	-4.38871e+00	4.398797e+00	
370	2.849524e-03	-4.05385e+00	4.066036e+00	
371	2.869524e-03	-3.65506e+00	3.669150e+00	
372	2.889524e-03	-3.19862e+00	3.214425e+00	
373	2.909524e-03	-2.69174e+00	2.709009e+00	
374	2.929524e-03	-2.14241e+00	2.160892e+00	
375	2.949524e-03	-1.55929e+00	1.578699e+00	
376	2.969524e-03	-9.51584e-01	9.716212e-01	
377	2.989524e-03	-3.28868e-01	3.491902e-01	
378	2.995578e-03	-1.38891e-01	1.590920e-01	
379	2.998738e-03	-3.96354e-02	5.959968e-02	
380	2.999923e-03	-2.41578e-03	2.200214e-02	
381	3.000721e-03	2.265829e-02	-3.66168e-03	
382	3.001499e-03	4.708449e-02	-2.91054e-02	
383	3.002324e-03	7.302012e-02	-5.66124e-02	
384	3.003074e-03	9.657023e-02	-8.17270e-02	
385	3.003390e-03	1.064929e-01	-9.20332e-02	
386	3.003594e-03	1.129059e-01	-9.80843e-02	
387	3.003714e-03	1.166752e-01	-1.01013e-01	
388	3.003811e-03	1.197024e-01	-1.02670e-01	
389	3.003931e-03	1.234709e-01	-1.03261e-01	
390	3.004042e-03	1.269552e-01	-1.01756e-01	
391	3.004171e-03	1.310306e-01	-9.67350e-02	
392	3.004309e-03	1.353646e-01	-8.71231e-02	
393	3.004457e-03	1.399928e-01	-7.22639e-02	
394	3.004620e-03	1.451190e-01	-5.15454e-02	
395	3.004813e-03	1.511861e-01	-2.38382e-02	
396	3.004976e-03	1.563103e-01	2.490177e-04	
397	3.005140e-03	1.614650e-01	2.355054e-02	
398	3.005318e-03	1.670390e-01	4.671144e-02	
399	3.005546e-03	1.742046e-01	7.269356e-02	
400	3.005799e-03	1.821455e-01	9.655186e-02	
401	3.006051e-03	1.900446e-01	1.158415e-01	
402	3.006345e-03	1.992711e-01	1.341284e-01	

Index   time            v(1)            v(3)            
--------------------------------------------------------------------------------
403	3.006700e-03	2.104288e-01	1.520795e-01	
404	3.007078e-03	2.222876e-01	1.680638e-01	
405	3.007503e-03	2.356107e-01	1.839354e-01	
406	3.007924e-03	2.488432e-01	1.985501e-01	
407	3.008447e-03	2.652412e-01	2.159153e-01	
408	3.009066e-03	2.846726e-01	2.360041e-01	
409	3.009925e-03	3.116079e-01	2.635094e-01	
410	3.011074e-03	3.476335e-01	3.000597e-01	
411	3.012923e-03	4.055494e-01	3.585880e-01	
412	3.016118e-03	5.054931e-01	4.592529e-01	
413	3.022507e-03	7.047292e-01	6.594252e-01	
414	3.029436e-03	9.194830e-01	8.748048e-01	
415	3.040223e-03	1.250234e+00	1.206528e+00	
416	3.051620e-03	1.593413e+00	1.550726e+00	
417	3.071620e-03	2.174841e+00	2.134333e+00	
418	3.091620e-03	2.721971e+00	2.684244e+00	
419	3.111620e-03	3.226174e+00	3.191679e+00	
420	3.131620e-03	3.679497e+00	3.648813e+00	
421	3.151620e-03	4.074793e+00	4.048302e+00	
422	3.171620e-03	4.405827e+00	4.383990e+00	
423	3.191620e-03	4.667379e+00	4.650448e+00	
424	3.211620e-03	4.855323e+00	4.843610e+00	
