
Circuit: op-amp 741 based circuit-4

                           op-amp 741 based circuit-4
                           Transient Analysis  Thu Feb  3 03:38:49  2022
--------------------------------------------------------------------------------
Index   time            v(5)            v(6)            
--------------------------------------------------------------------------------
0	1.000000e-01	4.448130e+00	-5.00000e+00	
1	1.000000e-01	4.448156e+00	-4.99215e+00	
2	1.000000e-01	4.448209e+00	-4.97645e+00	
3	1.000000e-01	4.448314e+00	-4.94505e+00	
4	1.000000e-01	4.448524e+00	-4.88224e+00	
5	1.000000e-01	4.448942e+00	-4.75664e+00	
6	1.000000e-01	4.449754e+00	-4.50542e+00	
7	1.000001e-01	4.450768e+00	-4.17016e+00	
8	1.000001e-01	4.451644e+00	-3.84733e+00	
9	1.000002e-01	4.452483e+00	-3.48911e+00	
10	1.000002e-01	4.453195e+00	-3.12232e+00	
11	1.000002e-01	4.453960e+00	-2.60536e+00	
12	1.000003e-01	4.454586e+00	-1.95318e+00	
13	1.000004e-01	4.455047e+00	-9.30513e-01	
14	1.000005e-01	4.455137e+00	-1.74444e-03	
15	1.000006e-01	4.455089e+00	9.963659e-01	
16	1.000007e-01	4.454944e+00	2.217604e+00	
17	1.000009e-01	4.454698e+00	3.512359e+00	
18	1.000010e-01	4.454235e+00	5.000000e+00	
19	1.000010e-01	4.453629e+00	5.000000e+00	
20	1.000011e-01	4.452448e+00	5.000000e+00	
21	1.000011e-01	4.450398e+00	5.000000e+00	
22	1.000012e-01	4.449538e+00	5.000000e+00	
23	1.000012e-01	4.448710e+00	5.000000e+00	
24	1.000013e-01	4.448003e+00	5.000000e+00	
25	1.000014e-01	4.447367e+00	5.000000e+00	
26	1.000014e-01	4.446949e+00	5.000000e+00	
27	1.000015e-01	4.446688e+00	5.000000e+00	
28	1.000016e-01	4.446420e+00	5.000000e+00	
29	1.000016e-01	4.446093e+00	5.000000e+00	
30	1.000017e-01	4.445705e+00	5.000000e+00	
31	1.000018e-01	4.445186e+00	5.000000e+00	
32	1.000019e-01	4.444471e+00	5.000000e+00	
33	1.000021e-01	4.443458e+00	5.000000e+00	
34	1.000023e-01	4.442353e+00	5.000000e+00	
35	1.000025e-01	4.441198e+00	5.000000e+00	
36	1.000027e-01	4.439565e+00	5.000000e+00	
37	1.000032e-01	4.436758e+00	5.000000e+00	
38	1.000037e-01	4.433839e+00	5.000000e+00	
39	1.000047e-01	4.428003e+00	5.000000e+00	
40	1.000057e-01	4.422033e+00	5.000000e+00	
41	1.000067e-01	4.416063e+00	5.000000e+00	
42	1.000077e-01	4.410093e+00	5.000000e+00	
43	1.000087e-01	4.404123e+00	5.000000e+00	
44	1.000097e-01	4.398154e+00	5.000000e+00	
45	1.000107e-01	4.392184e+00	5.000000e+00	
46	1.000117e-01	4.386214e+00	5.000000e+00	
47	1.000127e-01	4.380245e+00	5.000000e+00	
48	1.000137e-01	4.374276e+00	5.000000e+00	
49	1.000147e-01	4.368306e+00	5.000000e+00	
50	1.000157e-01	4.362337e+00	5.000000e+00	
51	1.000167e-01	4.356368e+00	5.000000e+00	
52	1.000177e-01	4.350399e+00	5.000000e+00	
53	1.000187e-01	4.344430e+00	5.000000e+00	
54	1.000197e-01	4.338461e+00	5.000000e+00	

Index   time            v(5)            v(6)            
--------------------------------------------------------------------------------
55	1.000207e-01	4.332492e+00	5.000000e+00	
56	1.000217e-01	4.326524e+00	5.000000e+00	
57	1.000227e-01	4.320555e+00	5.000000e+00	
58	1.000237e-01	4.314586e+00	5.000000e+00	
59	1.000247e-01	4.308618e+00	5.000000e+00	
60	1.000257e-01	4.302650e+00	5.000000e+00	
61	1.000267e-01	4.296681e+00	5.000000e+00	
62	1.000277e-01	4.290713e+00	5.000000e+00	
63	1.000287e-01	4.284745e+00	5.000000e+00	
64	1.000297e-01	4.278777e+00	5.000000e+00	
65	1.000307e-01	4.272809e+00	5.000000e+00	
66	1.000317e-01	4.266841e+00	5.000000e+00	
67	1.000327e-01	4.260873e+00	5.000000e+00	
68	1.000337e-01	4.254906e+00	5.000000e+00	
69	1.000347e-01	4.248938e+00	5.000000e+00	
70	1.000357e-01	4.242971e+00	5.000000e+00	
71	1.000367e-01	4.237003e+00	5.000000e+00	
72	1.000377e-01	4.231036e+00	5.000000e+00	
73	1.000387e-01	4.225068e+00	5.000000e+00	
74	1.000397e-01	4.219101e+00	5.000000e+00	
75	1.000407e-01	4.213134e+00	5.000000e+00	
76	1.000417e-01	4.207167e+00	5.000000e+00	
77	1.000427e-01	4.201200e+00	5.000000e+00	
78	1.000437e-01	4.195233e+00	5.000000e+00	
79	1.000447e-01	4.189267e+00	5.000000e+00	
80	1.000457e-01	4.183300e+00	5.000000e+00	
81	1.000467e-01	4.177333e+00	5.000000e+00	
82	1.000477e-01	4.171367e+00	5.000000e+00	
83	1.000487e-01	4.165400e+00	5.000000e+00	
84	1.000497e-01	4.159434e+00	5.000000e+00	
85	1.000507e-01	4.153468e+00	5.000000e+00	
86	1.000517e-01	4.147502e+00	5.000000e+00	
87	1.000527e-01	4.141536e+00	5.000000e+00	
88	1.000537e-01	4.135570e+00	5.000000e+00	
89	1.000547e-01	4.129604e+00	5.000000e+00	
90	1.000557e-01	4.123638e+00	5.000000e+00	
91	1.000567e-01	4.117672e+00	5.000000e+00	
92	1.000577e-01	4.111706e+00	5.000000e+00	
93	1.000587e-01	4.105741e+00	5.000000e+00	
94	1.000597e-01	4.099775e+00	5.000000e+00	
95	1.000607e-01	4.093810e+00	5.000000e+00	
96	1.000617e-01	4.087845e+00	5.000000e+00	
97	1.000627e-01	4.081879e+00	5.000000e+00	
98	1.000637e-01	4.075914e+00	5.000000e+00	
99	1.000647e-01	4.069949e+00	5.000000e+00	
100	1.000657e-01	4.063984e+00	5.000000e+00	
101	1.000667e-01	4.058019e+00	5.000000e+00	
102	1.000677e-01	4.052054e+00	5.000000e+00	
103	1.000687e-01	4.046090e+00	5.000000e+00	
104	1.000697e-01	4.040125e+00	5.000000e+00	
105	1.000707e-01	4.034161e+00	5.000000e+00	
106	1.000717e-01	4.028196e+00	5.000000e+00	
107	1.000727e-01	4.022232e+00	5.000000e+00	
108	1.000737e-01	4.016267e+00	5.000000e+00	
109	1.000747e-01	4.010303e+00	5.000000e+00	
110	1.000757e-01	4.004339e+00	5.000000e+00	
111	1.000767e-01	3.998375e+00	5.000000e+00	
112	1.000777e-01	3.992411e+00	5.000000e+00	

Index   time            v(5)            v(6)            
--------------------------------------------------------------------------------
113	1.000787e-01	3.986447e+00	5.000000e+00	
114	1.000797e-01	3.980483e+00	5.000000e+00	
115	1.000807e-01	3.974520e+00	5.000000e+00	
116	1.000817e-01	3.968556e+00	5.000000e+00	
117	1.000827e-01	3.962592e+00	5.000000e+00	
118	1.000837e-01	3.956629e+00	5.000000e+00	
119	1.000847e-01	3.950666e+00	5.000000e+00	
120	1.000857e-01	3.944702e+00	5.000000e+00	
121	1.000867e-01	3.938739e+00	5.000000e+00	
122	1.000877e-01	3.932776e+00	5.000000e+00	
123	1.000887e-01	3.926813e+00	5.000000e+00	
124	1.000897e-01	3.920850e+00	5.000000e+00	
125	1.000907e-01	3.914887e+00	5.000000e+00	
126	1.000917e-01	3.908924e+00	5.000000e+00	
127	1.000927e-01	3.902962e+00	5.000000e+00	
128	1.000937e-01	3.896999e+00	5.000000e+00	
129	1.000947e-01	3.891037e+00	5.000000e+00	
130	1.000957e-01	3.885074e+00	5.000000e+00	
131	1.000967e-01	3.879112e+00	5.000000e+00	
132	1.000977e-01	3.873149e+00	5.000000e+00	
133	1.000987e-01	3.867187e+00	5.000000e+00	
134	1.000997e-01	3.861225e+00	5.000000e+00	
135	1.001007e-01	3.855263e+00	5.000000e+00	
136	1.001017e-01	3.849301e+00	5.000000e+00	
137	1.001027e-01	3.843339e+00	5.000000e+00	
138	1.001037e-01	3.837378e+00	5.000000e+00	
139	1.001047e-01	3.831416e+00	5.000000e+00	
140	1.001057e-01	3.825454e+00	5.000000e+00	
141	1.001067e-01	3.819493e+00	5.000000e+00	
142	1.001077e-01	3.813531e+00	5.000000e+00	
143	1.001087e-01	3.807570e+00	5.000000e+00	
144	1.001097e-01	3.801609e+00	5.000000e+00	
145	1.001107e-01	3.795648e+00	5.000000e+00	
146	1.001117e-01	3.789686e+00	5.000000e+00	
147	1.001127e-01	3.783725e+00	5.000000e+00	
148	1.001137e-01	3.777765e+00	5.000000e+00	
149	1.001147e-01	3.771804e+00	5.000000e+00	
150	1.001157e-01	3.765843e+00	5.000000e+00	
151	1.001167e-01	3.759882e+00	5.000000e+00	
152	1.001177e-01	3.753922e+00	5.000000e+00	
153	1.001187e-01	3.747961e+00	5.000000e+00	
154	1.001197e-01	3.742001e+00	5.000000e+00	
155	1.001207e-01	3.736040e+00	5.000000e+00	
156	1.001217e-01	3.730080e+00	5.000000e+00	
157	1.001227e-01	3.724120e+00	5.000000e+00	
158	1.001237e-01	3.718160e+00	5.000000e+00	
159	1.001247e-01	3.712200e+00	5.000000e+00	
160	1.001257e-01	3.706240e+00	5.000000e+00	
161	1.001267e-01	3.700280e+00	5.000000e+00	
162	1.001277e-01	3.694320e+00	5.000000e+00	
163	1.001287e-01	3.688361e+00	5.000000e+00	
164	1.001297e-01	3.682401e+00	5.000000e+00	
165	1.001307e-01	3.676442e+00	5.000000e+00	
166	1.001317e-01	3.670482e+00	5.000000e+00	
167	1.001327e-01	3.664523e+00	5.000000e+00	
168	1.001337e-01	3.658564e+00	5.000000e+00	
169	1.001347e-01	3.652605e+00	5.000000e+00	
170	1.001357e-01	3.646646e+00	5.000000e+00	

Index   time            v(5)            v(6)            
--------------------------------------------------------------------------------
171	1.001367e-01	3.640687e+00	5.000000e+00	
172	1.001377e-01	3.634728e+00	5.000000e+00	
173	1.001387e-01	3.628769e+00	5.000000e+00	
174	1.001397e-01	3.622810e+00	5.000000e+00	
175	1.001407e-01	3.616852e+00	5.000000e+00	
176	1.001417e-01	3.610893e+00	5.000000e+00	
177	1.001427e-01	3.604935e+00	5.000000e+00	
178	1.001437e-01	3.598976e+00	5.000000e+00	
179	1.001447e-01	3.593018e+00	5.000000e+00	
180	1.001457e-01	3.587060e+00	5.000000e+00	
181	1.001467e-01	3.581102e+00	5.000000e+00	
182	1.001477e-01	3.575143e+00	5.000000e+00	
183	1.001487e-01	3.569186e+00	5.000000e+00	
184	1.001497e-01	3.563228e+00	5.000000e+00	
185	1.001507e-01	3.557270e+00	5.000000e+00	
186	1.001517e-01	3.551312e+00	5.000000e+00	
187	1.001527e-01	3.545355e+00	5.000000e+00	
188	1.001537e-01	3.539397e+00	5.000000e+00	
189	1.001547e-01	3.533440e+00	5.000000e+00	
190	1.001557e-01	3.527482e+00	5.000000e+00	
191	1.001567e-01	3.521525e+00	5.000000e+00	
192	1.001577e-01	3.515568e+00	5.000000e+00	
193	1.001587e-01	3.509611e+00	5.000000e+00	
194	1.001597e-01	3.503654e+00	5.000000e+00	
195	1.001607e-01	3.497697e+00	5.000000e+00	
196	1.001617e-01	3.491740e+00	5.000000e+00	
197	1.001627e-01	3.485783e+00	5.000000e+00	
198	1.001637e-01	3.479826e+00	5.000000e+00	
199	1.001647e-01	3.473870e+00	5.000000e+00	
200	1.001657e-01	3.467913e+00	5.000000e+00	
201	1.001667e-01	3.461957e+00	5.000000e+00	
202	1.001677e-01	3.456000e+00	5.000000e+00	
203	1.001687e-01	3.450044e+00	5.000000e+00	
204	1.001697e-01	3.444088e+00	5.000000e+00	
205	1.001707e-01	3.438132e+00	5.000000e+00	
206	1.001717e-01	3.432176e+00	5.000000e+00	
207	1.001727e-01	3.426220e+00	5.000000e+00	
208	1.001737e-01	3.420264e+00	5.000000e+00	
209	1.001747e-01	3.414308e+00	5.000000e+00	
210	1.001757e-01	3.408352e+00	5.000000e+00	
211	1.001767e-01	3.402397e+00	5.000000e+00	
212	1.001777e-01	3.396441e+00	5.000000e+00	
213	1.001787e-01	3.390486e+00	5.000000e+00	
214	1.001797e-01	3.384531e+00	5.000000e+00	
215	1.001807e-01	3.378575e+00	5.000000e+00	
216	1.001817e-01	3.372620e+00	5.000000e+00	
217	1.001827e-01	3.366665e+00	5.000000e+00	
218	1.001837e-01	3.360710e+00	5.000000e+00	
219	1.001847e-01	3.354755e+00	5.000000e+00	
220	1.001857e-01	3.348800e+00	5.000000e+00	
221	1.001867e-01	3.342846e+00	5.000000e+00	
222	1.001877e-01	3.336891e+00	5.000000e+00	
223	1.001887e-01	3.330936e+00	5.000000e+00	
224	1.001897e-01	3.324982e+00	5.000000e+00	
225	1.001907e-01	3.319027e+00	5.000000e+00	
226	1.001917e-01	3.313073e+00	5.000000e+00	
227	1.001927e-01	3.307119e+00	5.000000e+00	
228	1.001937e-01	3.301165e+00	5.000000e+00	

Index   time            v(5)            v(6)            
--------------------------------------------------------------------------------
229	1.001947e-01	3.295211e+00	5.000000e+00	
230	1.001957e-01	3.289257e+00	5.000000e+00	
231	1.001967e-01	3.283303e+00	5.000000e+00	
232	1.001977e-01	3.277349e+00	5.000000e+00	
233	1.001987e-01	3.271395e+00	5.000000e+00	
234	1.001997e-01	3.265441e+00	5.000000e+00	
235	1.002007e-01	3.259488e+00	5.000000e+00	
236	1.002017e-01	3.253534e+00	5.000000e+00	
237	1.002027e-01	3.247581e+00	5.000000e+00	
238	1.002037e-01	3.241628e+00	5.000000e+00	
239	1.002047e-01	3.235674e+00	5.000000e+00	
240	1.002057e-01	3.229721e+00	5.000000e+00	
241	1.002067e-01	3.223768e+00	5.000000e+00	
242	1.002077e-01	3.217815e+00	5.000000e+00	
243	1.002087e-01	3.211862e+00	5.000000e+00	
244	1.002097e-01	3.205910e+00	5.000000e+00	
245	1.002107e-01	3.199957e+00	5.000000e+00	
246	1.002117e-01	3.194004e+00	5.000000e+00	
247	1.002127e-01	3.188052e+00	5.000000e+00	
248	1.002137e-01	3.182099e+00	5.000000e+00	
249	1.002147e-01	3.176147e+00	5.000000e+00	
250	1.002157e-01	3.170195e+00	5.000000e+00	
251	1.002167e-01	3.164242e+00	5.000000e+00	
252	1.002177e-01	3.158290e+00	5.000000e+00	
253	1.002187e-01	3.152338e+00	5.000000e+00	
254	1.002197e-01	3.146386e+00	5.000000e+00	
255	1.002207e-01	3.140434e+00	5.000000e+00	
256	1.002217e-01	3.134482e+00	5.000000e+00	
257	1.002227e-01	3.128531e+00	5.000000e+00	
258	1.002237e-01	3.122579e+00	5.000000e+00	
259	1.002247e-01	3.116628e+00	5.000000e+00	
260	1.002257e-01	3.110676e+00	5.000000e+00	
261	1.002267e-01	3.104725e+00	5.000000e+00	
262	1.002277e-01	3.098773e+00	5.000000e+00	
263	1.002287e-01	3.092822e+00	5.000000e+00	
264	1.002297e-01	3.086871e+00	5.000000e+00	
265	1.002307e-01	3.080920e+00	5.000000e+00	
266	1.002317e-01	3.074969e+00	5.000000e+00	
267	1.002327e-01	3.069018e+00	5.000000e+00	
268	1.002337e-01	3.063068e+00	5.000000e+00	
269	1.002347e-01	3.057117e+00	5.000000e+00	
270	1.002357e-01	3.051166e+00	5.000000e+00	
271	1.002367e-01	3.045216e+00	5.000000e+00	
272	1.002377e-01	3.039265e+00	5.000000e+00	
273	1.002387e-01	3.033315e+00	5.000000e+00	
274	1.002397e-01	3.027365e+00	5.000000e+00	
275	1.002407e-01	3.021414e+00	5.000000e+00	
276	1.002417e-01	3.015464e+00	5.000000e+00	
277	1.002427e-01	3.009514e+00	5.000000e+00	
278	1.002437e-01	3.003564e+00	5.000000e+00	
279	1.002447e-01	2.997614e+00	5.000000e+00	
280	1.002457e-01	2.991665e+00	5.000000e+00	
281	1.002467e-01	2.985715e+00	5.000000e+00	
282	1.002477e-01	2.979765e+00	5.000000e+00	
283	1.002487e-01	2.973816e+00	5.000000e+00	
284	1.002497e-01	2.967866e+00	5.000000e+00	
285	1.002507e-01	2.961917e+00	5.000000e+00	
286	1.002517e-01	2.955968e+00	5.000000e+00	

Index   time            v(5)            v(6)            
--------------------------------------------------------------------------------
287	1.002527e-01	2.950019e+00	5.000000e+00	
288	1.002537e-01	2.944070e+00	5.000000e+00	
289	1.002547e-01	2.938121e+00	5.000000e+00	
290	1.002557e-01	2.932172e+00	5.000000e+00	
291	1.002567e-01	2.926223e+00	5.000000e+00	
292	1.002577e-01	2.920274e+00	5.000000e+00	
293	1.002587e-01	2.914325e+00	5.000000e+00	
294	1.002597e-01	2.908377e+00	5.000000e+00	
295	1.002607e-01	2.902428e+00	5.000000e+00	
296	1.002617e-01	2.896480e+00	5.000000e+00	
297	1.002627e-01	2.890532e+00	5.000000e+00	
298	1.002637e-01	2.884583e+00	5.000000e+00	
299	1.002647e-01	2.878635e+00	5.000000e+00	
300	1.002657e-01	2.872687e+00	5.000000e+00	
301	1.002667e-01	2.866739e+00	5.000000e+00	
302	1.002677e-01	2.860791e+00	5.000000e+00	
303	1.002687e-01	2.854843e+00	5.000000e+00	
304	1.002697e-01	2.848896e+00	5.000000e+00	
305	1.002707e-01	2.842948e+00	5.000000e+00	
306	1.002717e-01	2.837000e+00	5.000000e+00	
307	1.002727e-01	2.831053e+00	5.000000e+00	
308	1.002737e-01	2.825105e+00	5.000000e+00	
309	1.002747e-01	2.819158e+00	5.000000e+00	
310	1.002757e-01	2.813211e+00	5.000000e+00	
311	1.002767e-01	2.807264e+00	5.000000e+00	
312	1.002777e-01	2.801317e+00	5.000000e+00	
313	1.002787e-01	2.795370e+00	5.000000e+00	
314	1.002797e-01	2.789423e+00	5.000000e+00	
315	1.002807e-01	2.783476e+00	5.000000e+00	
316	1.002817e-01	2.777529e+00	5.000000e+00	
317	1.002827e-01	2.771583e+00	5.000000e+00	
318	1.002837e-01	2.765636e+00	5.000000e+00	
319	1.002847e-01	2.759690e+00	5.000000e+00	
320	1.002857e-01	2.753743e+00	5.000000e+00	
321	1.002867e-01	2.747797e+00	5.000000e+00	
322	1.002877e-01	2.741851e+00	5.000000e+00	
323	1.002887e-01	2.735904e+00	5.000000e+00	
324	1.002897e-01	2.729958e+00	5.000000e+00	
325	1.002907e-01	2.724012e+00	5.000000e+00	
326	1.002917e-01	2.718067e+00	5.000000e+00	
327	1.002927e-01	2.712121e+00	5.000000e+00	
328	1.002937e-01	2.706175e+00	5.000000e+00	
329	1.002947e-01	2.700229e+00	5.000000e+00	
330	1.002957e-01	2.694284e+00	5.000000e+00	
331	1.002967e-01	2.688338e+00	5.000000e+00	
332	1.002977e-01	2.682393e+00	5.000000e+00	
333	1.002987e-01	2.676448e+00	5.000000e+00	
334	1.002997e-01	2.670503e+00	5.000000e+00	
335	1.003007e-01	2.664557e+00	5.000000e+00	
336	1.003017e-01	2.658612e+00	5.000000e+00	
337	1.003027e-01	2.652667e+00	5.000000e+00	
338	1.003037e-01	2.646723e+00	5.000000e+00	
339	1.003047e-01	2.640778e+00	5.000000e+00	
340	1.003057e-01	2.634833e+00	5.000000e+00	
341	1.003067e-01	2.628888e+00	5.000000e+00	
342	1.003077e-01	2.622944e+00	5.000000e+00	
343	1.003087e-01	2.616999e+00	5.000000e+00	
344	1.003097e-01	2.611055e+00	5.000000e+00	

Index   time            v(5)            v(6)            
--------------------------------------------------------------------------------
345	1.003107e-01	2.605111e+00	5.000000e+00	
346	1.003117e-01	2.599167e+00	5.000000e+00	
347	1.003127e-01	2.593222e+00	5.000000e+00	
348	1.003137e-01	2.587278e+00	5.000000e+00	
349	1.003147e-01	2.581334e+00	5.000000e+00	
350	1.003157e-01	2.575391e+00	5.000000e+00	
351	1.003167e-01	2.569447e+00	5.000000e+00	
352	1.003177e-01	2.563503e+00	5.000000e+00	
353	1.003187e-01	2.557560e+00	5.000000e+00	
354	1.003197e-01	2.551616e+00	5.000000e+00	
355	1.003207e-01	2.545673e+00	5.000000e+00	
356	1.003217e-01	2.539729e+00	5.000000e+00	
357	1.003227e-01	2.533786e+00	5.000000e+00	
358	1.003237e-01	2.527843e+00	5.000000e+00	
359	1.003247e-01	2.521900e+00	5.000000e+00	
360	1.003257e-01	2.515957e+00	5.000000e+00	
361	1.003267e-01	2.510014e+00	5.000000e+00	
362	1.003277e-01	2.504071e+00	5.000000e+00	
363	1.003287e-01	2.498128e+00	5.000000e+00	
364	1.003297e-01	2.492185e+00	5.000000e+00	
365	1.003307e-01	2.486243e+00	5.000000e+00	
366	1.003317e-01	2.480300e+00	5.000000e+00	
367	1.003327e-01	2.474358e+00	5.000000e+00	
368	1.003337e-01	2.468415e+00	5.000000e+00	
369	1.003347e-01	2.462473e+00	5.000000e+00	
370	1.003357e-01	2.456531e+00	5.000000e+00	
371	1.003367e-01	2.450589e+00	5.000000e+00	
372	1.003377e-01	2.444647e+00	5.000000e+00	
373	1.003387e-01	2.438705e+00	5.000000e+00	
374	1.003397e-01	2.432763e+00	5.000000e+00	
375	1.003407e-01	2.426821e+00	5.000000e+00	
376	1.003417e-01	2.420880e+00	5.000000e+00	
377	1.003427e-01	2.414938e+00	5.000000e+00	
378	1.003437e-01	2.408997e+00	5.000000e+00	
379	1.003447e-01	2.403055e+00	5.000000e+00	
380	1.003457e-01	2.397114e+00	5.000000e+00	
381	1.003467e-01	2.391173e+00	5.000000e+00	
382	1.003477e-01	2.385231e+00	5.000000e+00	
383	1.003487e-01	2.379290e+00	5.000000e+00	
384	1.003497e-01	2.373349e+00	5.000000e+00	
385	1.003507e-01	2.367409e+00	5.000000e+00	
386	1.003517e-01	2.361468e+00	5.000000e+00	
387	1.003527e-01	2.355527e+00	5.000000e+00	
388	1.003537e-01	2.349586e+00	5.000000e+00	
389	1.003547e-01	2.343646e+00	5.000000e+00	
390	1.003557e-01	2.337705e+00	5.000000e+00	
391	1.003567e-01	2.331765e+00	5.000000e+00	
392	1.003577e-01	2.325824e+00	5.000000e+00	
393	1.003587e-01	2.319884e+00	5.000000e+00	
394	1.003597e-01	2.313944e+00	5.000000e+00	
395	1.003607e-01	2.308004e+00	5.000000e+00	
396	1.003617e-01	2.302064e+00	5.000000e+00	
397	1.003627e-01	2.296124e+00	5.000000e+00	
398	1.003637e-01	2.290184e+00	5.000000e+00	
399	1.003647e-01	2.284245e+00	5.000000e+00	
400	1.003657e-01	2.278305e+00	5.000000e+00	
401	1.003667e-01	2.272365e+00	5.000000e+00	
402	1.003677e-01	2.266426e+00	5.000000e+00	

Index   time            v(5)            v(6)            
--------------------------------------------------------------------------------
403	1.003687e-01	2.260486e+00	5.000000e+00	
404	1.003697e-01	2.254547e+00	5.000000e+00	
405	1.003707e-01	2.248608e+00	5.000000e+00	
406	1.003717e-01	2.242669e+00	5.000000e+00	
407	1.003727e-01	2.236730e+00	5.000000e+00	
408	1.003737e-01	2.230791e+00	5.000000e+00	
409	1.003747e-01	2.224852e+00	5.000000e+00	
410	1.003757e-01	2.218913e+00	5.000000e+00	
411	1.003767e-01	2.212974e+00	5.000000e+00	
412	1.003777e-01	2.207036e+00	5.000000e+00	
413	1.003787e-01	2.201097e+00	5.000000e+00	
414	1.003797e-01	2.195159e+00	5.000000e+00	
415	1.003807e-01	2.189220e+00	5.000000e+00	
416	1.003817e-01	2.183282e+00	5.000000e+00	
417	1.003827e-01	2.177344e+00	5.000000e+00	
418	1.003837e-01	2.171406e+00	5.000000e+00	
419	1.003847e-01	2.165468e+00	5.000000e+00	
420	1.003857e-01	2.159530e+00	5.000000e+00	
421	1.003867e-01	2.153592e+00	5.000000e+00	
422	1.003877e-01	2.147654e+00	5.000000e+00	
423	1.003887e-01	2.141716e+00	5.000000e+00	
424	1.003897e-01	2.135779e+00	5.000000e+00	
425	1.003907e-01	2.129841e+00	5.000000e+00	
